Circuit: * D:\workspace\sim\calculo corrente bc337.asc

Direct Newton iteration for .op point succeeded.
Semiconductor Device Operating Points:
                        --- Bipolar Transistors ---
Name:       q1
Model:   bc817-25
Ib:       2.57e-04
Ic:       7.62e-02
Vbe:      7.32e-01
Vbc:     -4.27e+00
Vce:      5.00e+00
BetaDC:   2.97e+02
Gm:       2.59e+00
Rpi:      1.01e+02
Rx:       1.00e+00
Ro:       1.43e+03
Cbe:      1.54e-09
Cbc:      2.26e-12
Cjs:      0.00e+00
BetaAC:   2.62e+02
Cbx:      2.70e-12
Ft:       2.66e+08



Date: Mon Apr 20 01:07:37 2015
Total elapsed time: 0.016 seconds.

tnom = 27
temp = 27
method = trap
totiter = 8
traniter = 0
tranpoints = 0
accept = 0
rejected = 0
matrix size = 6
fillins = 0
solver = Normal
Matrix Compiler1: 414 bytes object code size
Matrix Compiler2: 476 bytes object code size

